
T0F58 000:495 SEGGER J-Link V4.98e Log File (0001ms, 0283ms total)
T0F58 000:495 DLL Compiled: May  5 2015 11:00:52 (0001ms, 0283ms total)
T0F58 000:495 Logging started @ 2017-10-09 10:00 (0001ms, 0283ms total)
T0F58 000:496 JLINK_SetWarnOutHandler(...) (0000ms, 0283ms total)
T0F58 000:496 JLINK_OpenEx(...)
Firmware: J-Link ARM-OB STM32 compiled Aug 22 2012 19:52:04
Hardware: V7.00
S/N: 20090928
Feature(s): RDI,FlashDL,FlashBP,JFlash,GDBFull  returns O.K. (0276ms, 0559ms total)
T0F58 000:772 JLINK_SetErrorOutHandler(...) (0000ms, 0559ms total)
T0F58 000:772 JLINK_ExecCommand("ProjectFile = "E:\development\nordic\sleep_watch_bootloader\arm\JLinkSettings.ini"", ...)  returns 0x00 (0004ms, 0563ms total)
T0F58 000:776 JLINK_ExecCommand("Device = nRF51822_xxAA", ...)Device "NRF51822_XXAA" selected.  returns 0x00 (0001ms, 0564ms total)
T0F58 000:777 JLINK_ExecCommand("DisableConnectionTimeout", ...)  returns 0x01 (0000ms, 0564ms total)
T0F58 000:777 JLINK_GetHardwareVersion()  returns 0x11170 (0000ms, 0564ms total)
T0F58 000:777 JLINK_GetDLLVersion()  returns 49805 (0000ms, 0564ms total)
T0F58 000:777 JLINK_GetFirmwareString(...) (0000ms, 0564ms total)
T0F58 000:777 JLINK_GetDLLVersion()  returns 49805 (0000ms, 0564ms total)
T0F58 000:777 JLINK_GetCompileDateTime() (0000ms, 0564ms total)
T0F58 000:778 JLINK_GetFirmwareString(...) (0000ms, 0564ms total)
T0F58 000:778 JLINK_GetHardwareVersion()  returns 0x11170 (0000ms, 0564ms total)
T0F58 000:784 JLINK_TIF_Select(JLINKARM_TIF_SWD)  returns 0x00 (0003ms, 0567ms total)
T0F58 000:787 JLINK_SetSpeed(5000) (0001ms, 0568ms total)
T0F58 000:788 JLINK_GetId() >0x108 TIF>Found SWD-DP with ID 0x0BB11477 >0x35 TIF> >0x0D TIF> >0x28 TIF> >0x0D TIF> >0x28 TIF> >0x35 TIF> >0x0D TIF> >0x28 TIF> >0x35 TIF> >0x35 TIF> >0x35 TIF> >0x0D TIF> >0x28 TIF> >0x0D TIF> >0x28 TIF> >0x0D TIF> >0x28 TIF> >0x35 TIF> >0x35 TIF> >0x35 TIF> >0x0D TIF> >0x28 TIF> >0x0D TIF> >0x28 TIF> >0x35 TIF> >0x0D TIF> >0x28 TIF> >0x0D TIF> >0x28 TIF> >0x0D TIF> >0x28 TIF> >0x35 TIF> >0x35 TIF> >0x0D TIF> >0x28 TIF> >0x35 TIF> >0x35 TIF>
Found Cortex-M0 r0p0, Little endian. -- CPU_WriteMem(4 bytes @ 0xE0002000) -- CPU_ReadMem(4 bytes @ 0xE000EDF0) -- CPU_ReadMem(4 bytes @ 0xE0002000)FPUnit: 4 code (BP) slots and 0 literal slots -- CPU_ReadMem(4 bytes @ 0xE000EDFC) -- CPU_ReadMem(4 bytes @ 0xE0001000) -- CPU_WriteMem(4 bytes @ 0xE0001000)CoreSight components:ROMTbl 0 @ F0000000 -- CPU_ReadMem(16 bytes @ 0xF0000000) -- CPU_ReadMem(16 bytes @ 0xE00FFFF0) -- CPU_ReadMem(16 bytes @ 0xE00FFFE0)
ROMTbl 0 [0]: F00FF000, CID: B105100D, PID: 000BB471 ROM TableROMTbl 1 @ E00FF000 -- CPU_ReadMem(16 bytes @ 0xE00FF000) -- CPU_ReadMem(16 bytes @ 0xE000EFF0) -- CPU_ReadMem(16 bytes @ 0xE000EFE0)ROMTbl 1 [0]: FFF0F000, CID: B105E00D, PID: 000BB008 SCS -- CPU_ReadMem(16 bytes @ 0xE0001FF0) -- CPU_ReadMem(16 bytes @ 0xE0001FE0)ROMTbl 1 [1]: FFF02000, CID: B105E00D, PID: 000BB00A DWT -- CPU_ReadMem(16 bytes @ 0xE0002FF0) -- CPU_ReadMem(16 bytes @ 0xE0002FE0)
ROMTbl 1 [2]: FFF03000, CID: B105E00D, PID: 000BB00B FPB -- CPU_ReadMem(16 bytes @ 0xF0002FF0) -- CPU_ReadMem(16 bytes @ 0xF0002FE0)ROMTbl 0 [1]: 00002000, CID: B105900D, PID: 000BB9A3 ??? >0x35 TIF>  returns 0x0BB11477 (0065ms, 0633ms total)
T0F58 000:853 JLINK_GetDLLVersion()  returns 49805 (0000ms, 0633ms total)
T0F58 000:853 JLINK_CORE_GetFound()  returns 0x60000FF (0000ms, 0633ms total)
T0F58 000:853 JLINK_GetDebugInfo(0x100) -- Value=0xF0000003  returns 0x00 (0000ms, 0633ms total)
T0F58 000:853 JLINK_ReadMem (0xF0000000, 0x0020 Bytes, ...) -- CPU is running -- CPU_ReadMem(32 bytes @ 0xF0000000) - Data: 03 F0 0F F0 03 20 00 00 00 00 00 00 00 00 00 00 ...  returns 0x00 (0002ms, 0635ms total)
T0F58 000:855 JLINK_ReadMem (0xE00FFFF0, 0x0010 Bytes, ...) -- CPU is running -- CPU_ReadMem(16 bytes @ 0xE00FFFF0) - Data: 0D 00 00 00 10 00 00 00 05 00 00 00 B1 00 00 00  returns 0x00 (0001ms, 0636ms total)
T0F58 000:856 JLINK_ReadMem (0xE00FFFD0, 0x0020 Bytes, ...) -- CPU is running -- CPU_ReadMem(32 bytes @ 0xE00FFFD0) - Data: 04 00 00 00 00 00 00 00 00 00 00 00 00 00 00 00 ...  returns 0x00 (0001ms, 0637ms total)
T0F58 000:857 JLINK_ReadMem (0xE00FF000, 0x0020 Bytes, ...) -- CPU is running -- CPU_ReadMem(32 bytes @ 0xE00FF000) - Data: 03 F0 F0 FF 03 20 F0 FF 03 30 F0 FF 00 00 00 00 ...  returns 0x00 (0001ms, 0638ms total)
T0F58 000:858 JLINK_ReadMem (0xE000EFF0, 0x0010 Bytes, ...) -- CPU is running -- CPU_ReadMem(16 bytes @ 0xE000EFF0) - Data: 0D 00 00 00 E0 00 00 00 05 00 00 00 B1 00 00 00  returns 0x00 (0001ms, 0639ms total)
T0F58 000:859 JLINK_ReadMem (0xE000EFD0, 0x0020 Bytes, ...) -- CPU is running -- CPU_ReadMem(32 bytes @ 0xE000EFD0) - Data: 04 00 00 00 00 00 00 00 00 00 00 00 00 00 00 00 ...  returns 0x00 (0001ms, 0640ms total)
T0F58 000:860 JLINK_ReadMem (0xE0001FF0, 0x0010 Bytes, ...) -- CPU is running -- CPU_ReadMem(16 bytes @ 0xE0001FF0) - Data: 0D 00 00 00 E0 00 00 00 05 00 00 00 B1 00 00 00  returns 0x00 (0001ms, 0641ms total)
T0F58 000:861 JLINK_ReadMem (0xE0001FD0, 0x0020 Bytes, ...) -- CPU is running -- CPU_ReadMem(32 bytes @ 0xE0001FD0) - Data: 04 00 00 00 00 00 00 00 00 00 00 00 00 00 00 00 ...  returns 0x00 (0001ms, 0642ms total)
T0F58 000:862 JLINK_ReadMem (0xE0002FF0, 0x0010 Bytes, ...) -- CPU is running -- CPU_ReadMem(16 bytes @ 0xE0002FF0) - Data: 0D 00 00 00 E0 00 00 00 05 00 00 00 B1 00 00 00  returns 0x00 (0001ms, 0643ms total)
T0F58 000:863 JLINK_ReadMem (0xE0002FD0, 0x0020 Bytes, ...) -- CPU is running -- CPU_ReadMem(32 bytes @ 0xE0002FD0) - Data: 04 00 00 00 00 00 00 00 00 00 00 00 00 00 00 00 ...  returns 0x00 (0001ms, 0644ms total)
T0F58 000:864 JLINK_ReadMem (0xF0002FF0, 0x0010 Bytes, ...) -- CPU is running -- CPU_ReadMem(16 bytes @ 0xF0002FF0) - Data: 0D 00 00 00 90 00 00 00 05 00 00 00 B1 00 00 00  returns 0x00 (0001ms, 0645ms total)
T0F58 000:865 JLINK_ReadMem (0xF0002FD0, 0x0020 Bytes, ...) -- CPU is running -- CPU_ReadMem(32 bytes @ 0xF0002FD0) - Data: 04 00 00 00 00 00 00 00 00 00 00 00 00 00 00 00 ...  returns 0x00 (0001ms, 0646ms total)
T0F58 000:866 JLINK_ReadMemU32(0xE000ED00, 0x0001 Items, ...) -- CPU is running -- CPU_ReadMem(4 bytes @ 0xE000ED00) - Data: 00 C2 0C 41  returns 0x01 (0001ms, 0647ms total)
T0F58 000:867 JLINK_SetResetType(JLINKARM_RESET_TYPE_NORMAL)  returns JLINKARM_RESET_TYPE_NORMAL (0000ms, 0647ms total)
T0F58 000:867 JLINK_Reset() -- CPU is running -- CPU_WriteMem(4 bytes @ 0xE000EDF0) -- CPU is running -- CPU_WriteMem(4 bytes @ 0xE000EDFC) >0x35 TIF> -- CPU is running -- CPU_WriteMem(4 bytes @ 0xE000ED0C) -- CPU is running -- CPU_ReadMem(4 bytes @ 0xE000EDF0) -- CPU is running -- CPU_ReadMem(4 bytes @ 0xE000EDF0) -- CPU is running -- CPU_WriteMem(4 bytes @ 0xE000EDF0) -- CPU is running -- CPU_WriteMem(4 bytes @ 0xE000EDFC) -- CPU is running -- CPU_ReadMem(4 bytes @ 0xE000EDF0)
 -- CPU_WriteMem(4 bytes @ 0xE0002000) -- CPU_ReadMem(4 bytes @ 0xE000EDFC) -- CPU_ReadMem(4 bytes @ 0xE0001000) -- CPU_WriteMem(4 bytes @ 0xE0001000) (0025ms, 0672ms total)
T0F58 000:892 JLINK_ReadReg(R15 (PC))  returns 0x000114CC (0000ms, 0672ms total)
T0F58 000:892 JLINK_ReadReg(XPSR)  returns 0xC1000000 (0000ms, 0672ms total)
T0F58 000:892 JLINK_Halt()  returns 0x00 (0000ms, 0672ms total)
T0F58 000:892 JLINK_IsHalted()  returns TRUE (0000ms, 0672ms total)
T0F58 000:892 JLINK_ReadMemU32(0xE000EDF0, 0x0001 Items, ...) -- CPU_ReadMem(4 bytes @ 0xE000EDF0) - Data: 03 00 03 00  returns 0x01 (0001ms, 0673ms total)
T0F58 000:893 JLINK_WriteU32(0xE000EDF0, 0xA05F0003) -- CPU_WriteMem(4 bytes @ 0xE000EDF0)  returns 0x00 (0001ms, 0674ms total)
T0F58 000:894 JLINK_WriteU32(0xE000EDFC, 0x01000000) -- CPU_WriteMem(4 bytes @ 0xE000EDFC)  returns 0x00 (0001ms, 0675ms total)
T0F58 000:895 JLINK_GetHWStatus(...)  returns 0x00 (0001ms, 0676ms total)
T0F58 000:896 JLINK_GetNumBPUnits(Type = 0xFFFFFF00)  returns 0x04 (0000ms, 0676ms total)
T0F58 000:896 JLINK_GetNumBPUnits(Type = 0xF0)  returns 0x2000 (0000ms, 0676ms total)
T0F58 000:896 JLINK_GetNumWPUnits()  returns 0x02 (0000ms, 0676ms total)
T0F58 000:896 JLINK_GetSpeed()  returns 0xFA0 (0000ms, 0676ms total)
T0F58 000:896 JLINK_ReadMemU32(0xE000E004, 0x0001 Items, ...) -- CPU_ReadMem(4 bytes @ 0xE000E004) - Data: 00 00 00 00  returns 0x01 (0002ms, 0678ms total)
T0F58 000:898 JLINK_ReadReg(R15 (PC))  returns 0x000114CC (0000ms, 0678ms total)
T0F58 000:898 JLINK_ReadReg(XPSR)  returns 0xC1000000 (0000ms, 0678ms total)
T0F58 000:932 JLINK_WriteMem(0x10001014, 0x0004 Bytes, ...) - Data: 00 C0 03 00  returns 0x04 (0000ms, 0678ms total)
T0F58 000:986 JLINK_SetResetType(JLINKARM_RESET_TYPE_NORMAL)  returns JLINKARM_RESET_TYPE_NORMAL (0000ms, 0678ms total)
T0F58 000:986 JLINK_Reset() -- -------------------------------------- -- Start of determining dirty areas in flash cache -- End of determining dirty areas -- Start of preparing flash programming -- Calculating RAM usage -- RAM usage = 2204 Bytes -- Preserving registers -- Preparing memory -- Determining CPU clock frequency -- CPU clock frequency: 16057 kHz -- CPU frequency = 16057 kHz -- Preparing target -- Downloading RAMCode -- Using alternate TurboMode RAMCode -- Checking target RAM
 -- Preparing RAMCode -- End of preparing flash programming -- CPU is running at 16057 kHz. -- Start of comparing flash -- CRC check was estimated as fastest method -- Comparing range 0x10001000 - 0x100013FF (1 Sector, 1024 Bytes), using multi-block CRC calculation -- CRC does not match for sector 0 -- End of comparing flash -- Start of erasing sectors -- Erasing range 0x10001000 - 0x100013FF (001 Sector, 1024 Bytes) -- End of erasing sectors -- Start of flash programming
 -- Programming range 0x10001000 - 0x100013FF (001 Sector, 1024 Bytes) -- End of flash programming -- Flash programming performed for 1 range (1024 bytes) -- 0x10001000 - 0x100013FF (001 Sector, 1024 Bytes) -- Start of verifying flash -- Checksum calculation was estimated as fastest method
  ***** Error: Programming failed @ address 0x10001000 (block verification error)
  ***** Error: Verification failed @ address 0x10001000 -- End of verifying flash -- Start of restoring -- Restore RAMCode
 -- Restore content of target memory -- Restore target -- Restore memory -- Restore content of registers -- End of restoring -- Total time needed: 0.121s (Prepare: 0.102s, Compare: 0.002s, Erase: 0.007s, Program: 0.002s, Verify: 0.000s, Restore: 0.007s)
  ***** Error: Programming failed @ address 0x10001000 (block verification error)
Verification failed @ address 0x10001000 -- CPU_ReadMem(4 bytes @ 0x20000000) -- CPU_WriteMem(4 bytes @ 0x20000000) -- CPU_WriteMem(4 bytes @ 0xE000EDF0)
 -- CPU_WriteMem(4 bytes @ 0xE000EDFC) >0x35 TIF> -- CPU_WriteMem(4 bytes @ 0xE000ED0C) -- CPU_ReadMem(4 bytes @ 0xE000EDF0) -- CPU_ReadMem(4 bytes @ 0xE000EDF0) -- CPU_WriteMem(4 bytes @ 0xE000EDF0) -- CPU_WriteMem(4 bytes @ 0xE000EDFC) -- CPU is running -- CPU_ReadMem(4 bytes @ 0xE000EDF0) -- CPU_WriteMem(4 bytes @ 0xE0002000) -- CPU_ReadMem(4 bytes @ 0xE000EDFC) -- CPU_ReadMem(4 bytes @ 0xE0001000) -- CPU_WriteMem(4 bytes @ 0xE0001000) (0152ms, 0830ms total)
T0F58 001:138 JLINK_ReadReg(R15 (PC))  returns 0x000114CC (0000ms, 0830ms total)
T0F58 001:138 JLINK_ReadReg(XPSR)  returns 0xC1000000 (0000ms, 0830ms total)
T0F58 001:138 JLINK_ReadMem (0x000114CC, 0x003C Bytes, ...) -- CPU_ReadMem(128 bytes @ 0x000114C0) -- Updating C cache (128 bytes @ 0x000114C0) -- Read from C cache (60 bytes @ 0x000114CC) - Data: 13 4B 1B 68 13 49 99 42 02 D0 18 68 88 42 F5 D0 ...  returns 0x00 (0002ms, 0832ms total)
T0F58 001:539 JLINK_ReadMem (0x00000000, 0x0188 Bytes, ...) -- CPU_ReadMem(448 bytes @ 0x00000000) -- Updating C cache (448 bytes @ 0x00000000) -- Read from C cache (392 bytes @ 0x00000000) - Data: D0 1B 00 20 CD 14 01 00 41 06 01 00 1F 14 01 00 ...  returns 0x00 (0005ms, 0837ms total)
T0DD8 001:850 JLINK_SetBPEx(Addr = 0x0003C27E, Type = 0xFFFFFFF2)  returns 0x00000001 (0000ms, 0837ms total)
T0DD8 001:850 JLINK_Go() -- CPU_WriteMem(4 bytes @ 0xE0002000) -- CPU_ReadMem(4 bytes @ 0xE0001000) -- CPU_WriteMem(4 bytes @ 0xE0001000) -- CPU_WriteMem(4 bytes @ 0xE0002008) -- CPU_WriteMem(4 bytes @ 0xE000200C) -- CPU_WriteMem(4 bytes @ 0xE0002010) -- CPU_WriteMem(4 bytes @ 0xE0002014) -- CPU_WriteMem(4 bytes @ 0xE0001004) (0010ms, 0847ms total)
T0DD8 001:960 JLINK_IsHalted()  returns TRUE (0005ms, 0852ms total)
T0DD8 001:965 JLINK_Halt()  returns 0x00 (0000ms, 0847ms total)
T0DD8 001:965 JLINK_IsHalted()  returns TRUE (0000ms, 0847ms total)
T0DD8 001:965 JLINK_IsHalted()  returns TRUE (0000ms, 0847ms total)
T0DD8 001:965 JLINK_IsHalted()  returns TRUE (0001ms, 0848ms total)
T0DD8 001:966 JLINK_ReadReg(R15 (PC))  returns 0x0003C27E (0000ms, 0847ms total)
T0DD8 001:966 JLINK_ReadReg(XPSR)  returns 0x01000000 (0000ms, 0847ms total)
T0DD8 001:966 JLINK_ClrBPEx(BPHandle = 0x00000001)  returns 0x00 (0000ms, 0847ms total)
T0DD8 001:966 JLINK_ReadMemU32(0xE000ED30, 0x0001 Items, ...) -- CPU_ReadMem(4 bytes @ 0xE000ED30) - Data: 03 00 00 00  returns 0x01 (0001ms, 0848ms total)
T0DD8 001:967 JLINK_ReadMemU32(0xE0001028, 0x0001 Items, ...) -- CPU_ReadMem(4 bytes @ 0xE0001028) - Data: 00 00 00 00  returns 0x01 (0001ms, 0849ms total)
T0DD8 001:968 JLINK_ReadMemU32(0xE0001038, 0x0001 Items, ...) -- CPU_ReadMem(4 bytes @ 0xE0001038) - Data: 00 00 00 00  returns 0x01 (0001ms, 0850ms total)
T0DD8 001:969 JLINK_ReadReg(R0)  returns 0x20002840 (0000ms, 0850ms total)
T0DD8 001:969 JLINK_ReadReg(R1)  returns 0x20003040 (0000ms, 0850ms total)
T0DD8 001:969 JLINK_ReadReg(R2)  returns 0x20003040 (0001ms, 0851ms total)
T0DD8 001:970 JLINK_ReadReg(R3)  returns 0x20003040 (0000ms, 0851ms total)
T0DD8 001:970 JLINK_ReadReg(R4)  returns 0x0003F6FC (0000ms, 0851ms total)
T0DD8 001:970 JLINK_ReadReg(R5)  returns 0x200027E0 (0000ms, 0851ms total)
T0DD8 001:970 JLINK_ReadReg(R6)  returns 0x00000000 (0000ms, 0851ms total)
T0DD8 001:970 JLINK_ReadReg(R7)  returns 0x00000000 (0000ms, 0851ms total)
T0DD8 001:970 JLINK_ReadReg(R8)  returns 0xFFFFFFFF (0000ms, 0851ms total)
T0DD8 001:970 JLINK_ReadReg(R9)  returns 0xFFFFFFFF (0000ms, 0851ms total)
T0DD8 001:970 JLINK_ReadReg(R10)  returns 0x0003F6FC (0000ms, 0851ms total)
T0DD8 001:970 JLINK_ReadReg(R11)  returns 0x0003F6FC (0000ms, 0851ms total)
T0DD8 001:970 JLINK_ReadReg(R12)  returns 0xFFFFFFFF (0000ms, 0851ms total)
T0DD8 001:970 JLINK_ReadReg(R13 (SP))  returns 0x20003840 (0000ms, 0851ms total)
T0DD8 001:970 JLINK_ReadReg(R14)  returns 0x0003C177 (0000ms, 0851ms total)
T0DD8 001:970 JLINK_ReadReg(R15 (PC))  returns 0x0003C27E (0000ms, 0851ms total)
T0DD8 001:970 JLINK_ReadReg(XPSR)  returns 0x01000000 (0000ms, 0851ms total)
T0DD8 001:970 JLINK_ReadReg(MSP)  returns 0x20003840 (0000ms, 0851ms total)
T0DD8 001:970 JLINK_ReadReg(PSP)  returns 0xFFFFFFFC (0000ms, 0851ms total)
T0DD8 001:970 JLINK_ReadReg(CFBP)  returns 0x00000000 (0000ms, 0851ms total)
T0F58 001:972 JLINK_ReadMem (0x00000000, 0x0004 Bytes, ...) -- CPU_ReadMem(64 bytes @ 0x00000000) -- Updating C cache (64 bytes @ 0x00000000) -- Read from C cache (4 bytes @ 0x00000000) - Data: D0 1B 00 20  returns 0x00 (0001ms, 0852ms total)
T0F58 001:987 JLINK_ReadMem (0x0003C27A, 0x0002 Bytes, ...) -- CPU_ReadMem(64 bytes @ 0x0003C240) -- Updating C cache (64 bytes @ 0x0003C240) -- Read from C cache (2 bytes @ 0x0003C27A) - Data: 05 B0  returns 0x00 (0002ms, 0854ms total)
T0F58 001:989 JLINK_ReadMem (0x0003C27C, 0x003C Bytes, ...) -- CPU_ReadMem(64 bytes @ 0x0003C280) -- Updating C cache (64 bytes @ 0x0003C280) -- Read from C cache (60 bytes @ 0x0003C27C) - Data: 00 BD 08 B5 58 48 0F 21 40 69 89 03 88 42 15 D1 ...  returns 0x00 (0002ms, 0856ms total)
T0F58 002:011 JLINK_ReadMem (0x0003C318, 0x003C Bytes, ...) -- CPU_ReadMem(128 bytes @ 0x0003C300) -- Updating C cache (128 bytes @ 0x0003C300) -- Read from C cache (60 bytes @ 0x0003C318) - Data: 00 F0 B9 FA 00 28 02 D0 28 A2 E2 21 CE E7 28 46 ...  returns 0x00 (0002ms, 0858ms total)
T0DD8 005:889 JLINK_SetBPEx(Addr = 0x0003C304, Type = 0xFFFFFFF2)  returns 0x00000002 (0002ms, 0860ms total)
T0DD8 005:891 JLINK_Go() -- CPU_WriteMem(4 bytes @ 0xE0002000) -- CPU_ReadMem(4 bytes @ 0xE0001000) -- CPU_WriteMem(4 bytes @ 0xE0001000) -- CPU_WriteMem(4 bytes @ 0xE0002008) (0006ms, 0866ms total)
T0DD8 005:997 JLINK_IsHalted()  returns FALSE (0001ms, 0867ms total)
T0DD8 006:098 JLINK_IsHalted()  returns FALSE (0001ms, 0867ms total)
T0DD8 006:199 JLINK_IsHalted()  returns FALSE (0001ms, 0867ms total)
T0DD8 006:300 JLINK_IsHalted()  returns FALSE (0001ms, 0867ms total)
T0DD8 006:401 JLINK_IsHalted()  returns FALSE (0001ms, 0867ms total)
T0DD8 006:502 JLINK_IsHalted()  returns FALSE (0001ms, 0867ms total)
T0DD8 006:603 JLINK_IsHalted()  returns FALSE (0001ms, 0867ms total)
T0DD8 006:704 JLINK_IsHalted()  returns FALSE (0001ms, 0867ms total)
T0DD8 006:805 JLINK_IsHalted()  returns FALSE (0001ms, 0867ms total)
T0DD8 006:906 JLINK_IsHalted()  returns FALSE (0002ms, 0868ms total)
T0DD8 007:008 JLINK_IsHalted()  returns FALSE (0001ms, 0867ms total)
T0DD8 007:109 JLINK_IsHalted()  returns FALSE (0001ms, 0867ms total)
T0DD8 007:210 JLINK_IsHalted()  returns FALSE (0001ms, 0867ms total)
T0DD8 007:311 JLINK_IsHalted()  returns FALSE (0001ms, 0867ms total)
T0DD8 007:412 JLINK_IsHalted()  returns FALSE (0001ms, 0867ms total)
T0DD8 007:513 JLINK_IsHalted()  returns FALSE (0001ms, 0867ms total)
T0DD8 007:614 JLINK_IsHalted()  returns FALSE (0001ms, 0867ms total)
T0DD8 007:715 JLINK_IsHalted()  returns FALSE (0001ms, 0867ms total)
T0DD8 007:816 JLINK_IsHalted()  returns FALSE (0001ms, 0867ms total)
T0DD8 007:917 JLINK_IsHalted()  returns FALSE (0002ms, 0868ms total)
T0DD8 008:019 JLINK_IsHalted()  returns FALSE (0001ms, 0867ms total)
T0DD8 008:120 JLINK_Halt()  returns 0x00 (0004ms, 0870ms total)
T0DD8 008:124 JLINK_IsHalted()  returns TRUE (0000ms, 0870ms total)
T0DD8 008:124 JLINK_IsHalted()  returns TRUE (0000ms, 0870ms total)
T0DD8 008:124 JLINK_IsHalted()  returns TRUE (0000ms, 0870ms total)
T0DD8 008:124 JLINK_ReadReg(R15 (PC))  returns 0x0003D0C2 (0000ms, 0870ms total)
T0DD8 008:124 JLINK_ReadReg(XPSR)  returns 0x01000000 (0000ms, 0870ms total)
T0DD8 008:124 JLINK_ClrBPEx(BPHandle = 0x00000002)  returns 0x00 (0000ms, 0870ms total)
T0DD8 008:124 JLINK_ReadMemU32(0xE000ED30, 0x0001 Items, ...) -- CPU_ReadMem(4 bytes @ 0xE000ED30) - Data: 01 00 00 00  returns 0x01 (0001ms, 0871ms total)
T0DD8 008:125 JLINK_ReadMemU32(0xE0001028, 0x0001 Items, ...) -- CPU_ReadMem(4 bytes @ 0xE0001028) - Data: 00 00 00 00  returns 0x01 (0001ms, 0872ms total)
T0DD8 008:126 JLINK_ReadMemU32(0xE0001038, 0x0001 Items, ...) -- CPU_ReadMem(4 bytes @ 0xE0001038) - Data: 00 00 00 00  returns 0x01 (0001ms, 0873ms total)
T0DD8 008:127 JLINK_ReadReg(R0)  returns 0x00000003 (0000ms, 0873ms total)
T0DD8 008:127 JLINK_ReadReg(R1)  returns 0x20002040 (0000ms, 0873ms total)
T0DD8 008:127 JLINK_ReadReg(R2)  returns 0x20002108 (0000ms, 0873ms total)
T0DD8 008:127 JLINK_ReadReg(R3)  returns 0x20002180 (0000ms, 0873ms total)
T0DD8 008:127 JLINK_ReadReg(R4)  returns 0x00000000 (0000ms, 0873ms total)
T0DD8 008:127 JLINK_ReadReg(R5)  returns 0x00000005 (0000ms, 0873ms total)
T0DD8 008:127 JLINK_ReadReg(R6)  returns 0x20002108 (0000ms, 0873ms total)
T0DD8 008:127 JLINK_ReadReg(R7)  returns 0x00000078 (0000ms, 0873ms total)
T0DD8 008:127 JLINK_ReadReg(R8)  returns 0xFFFFFFFF (0000ms, 0873ms total)
T0DD8 008:127 JLINK_ReadReg(R9)  returns 0xFFFFFFFF (0000ms, 0873ms total)
T0DD8 008:127 JLINK_ReadReg(R10)  returns 0x0003F6FC (0000ms, 0873ms total)
T0DD8 008:127 JLINK_ReadReg(R11)  returns 0x0003F6FC (0001ms, 0874ms total)
T0DD8 008:128 JLINK_ReadReg(R12)  returns 0xFFFFFFFF (0000ms, 0874ms total)
T0DD8 008:128 JLINK_ReadReg(R13 (SP))  returns 0x20003810 (0000ms, 0874ms total)
T0DD8 008:128 JLINK_ReadReg(R14)  returns 0x0003CE63 (0000ms, 0874ms total)
T0DD8 008:128 JLINK_ReadReg(R15 (PC))  returns 0x0003D0C2 (0000ms, 0874ms total)
T0DD8 008:128 JLINK_ReadReg(XPSR)  returns 0x01000000 (0000ms, 0874ms total)
T0DD8 008:128 JLINK_ReadReg(MSP)  returns 0x20003810 (0000ms, 0874ms total)
T0DD8 008:128 JLINK_ReadReg(PSP)  returns 0xFFFFFFFC (0000ms, 0874ms total)
T0DD8 008:128 JLINK_ReadReg(CFBP)  returns 0x00000000 (0000ms, 0874ms total)
T0F58 008:129 JLINK_ReadMem (0x20003834, 0x0004 Bytes, ...) -- CPU_ReadMem(64 bytes @ 0x20003800) -- Updating C cache (64 bytes @ 0x20003800) -- Read from C cache (4 bytes @ 0x20003834) - Data: AF C2 03 00  returns 0x00 (0001ms, 0875ms total)
T0F58 008:130 JLINK_ReadMem (0x20003824, 0x0004 Bytes, ...) -- Read from C cache (4 bytes @ 0x20003824) - Data: FC F6 03 00  returns 0x00 (0001ms, 0876ms total)
T0F58 008:131 JLINK_ReadMem (0x20003828, 0x0004 Bytes, ...) -- Read from C cache (4 bytes @ 0x20003828) - Data: E0 27 00 20  returns 0x00 (0000ms, 0876ms total)
T0F58 008:131 JLINK_ReadMem (0x2000382C, 0x0004 Bytes, ...) -- Read from C cache (4 bytes @ 0x2000382C) - Data: 00 00 00 00  returns 0x00 (0000ms, 0876ms total)
T0F58 008:131 JLINK_ReadMem (0x20003830, 0x0004 Bytes, ...) -- Read from C cache (4 bytes @ 0x20003830) - Data: 00 00 00 00  returns 0x00 (0000ms, 0876ms total)
T0F58 008:131 JLINK_ReadMem (0x2000383C, 0x0004 Bytes, ...) -- Read from C cache (4 bytes @ 0x2000383C) - Data: 77 C1 03 00  returns 0x00 (0000ms, 0876ms total)
T0F58 008:131 JLINK_ReadMem (0x20003814, 0x0004 Bytes, ...) -- Read from C cache (4 bytes @ 0x20003814) - Data: 00 00 00 00  returns 0x00 (0000ms, 0876ms total)
T0F58 008:131 JLINK_ReadMem (0x00000000, 0x0001 Bytes, ...) -- CPU_ReadMem(64 bytes @ 0x00000000) -- Updating C cache (64 bytes @ 0x00000000) -- Read from C cache (1 bytes @ 0x00000000) - Data: D0  returns 0x00 (0001ms, 0877ms total)
T0F58 008:132 JLINK_ReadMem (0x00000000, 0x0004 Bytes, ...) -- Read from C cache (4 bytes @ 0x00000000) - Data: D0 1B 00 20  returns 0x00 (0001ms, 0878ms total)
T0F58 008:150 JLINK_ReadMem (0x0003D0C2, 0x0002 Bytes, ...) -- CPU_ReadMem(64 bytes @ 0x0003D0C0) -- Updating C cache (64 bytes @ 0x0003D0C0) -- Read from C cache (2 bytes @ 0x0003D0C2) - Data: 48 70  returns 0x00 (0002ms, 0880ms total)
T0F58 008:152 JLINK_ReadMem (0x0003D0C4, 0x003C Bytes, ...) -- Read from C cache (60 bytes @ 0x0003D0C4) - Data: 0F 46 18 46 CB 60 19 46 18 30 00 22 18 23 2E 46 ...  returns 0x00 (0000ms, 0880ms total)
T0F58 008:213 JLINK_ReadMem (0x0003C304, 0x003C Bytes, ...) -- CPU_ReadMem(64 bytes @ 0x0003C300) -- Updating C cache (64 bytes @ 0x0003C300) -- Read from C cache (60 bytes @ 0x0003C304) - Data: 42 4D 00 0C C0 07 C0 0F 04 D0 28 46 00 F0 3D FA ...  returns 0x00 (0001ms, 0881ms total)
T0F58 008:248 JLINK_ReadMem (0x0003D0C0, 0x003C Bytes, ...) -- Read from C cache (60 bytes @ 0x0003D0C0) - Data: 03 20 48 70 0F 46 18 46 CB 60 19 46 18 30 00 22 ...  returns 0x00 (0000ms, 0881ms total)
T0DD8 016:502 JLINK_Step() -- Read from C cache (2 bytes @ 0x0003D0C2) -- CPU_ReadMem(4 bytes @ 0xE0001004) -- CPU_WriteMem(1 bytes @ 0x20002041) -- Simulated  returns 0x00 (0007ms, 0888ms total)
T0DD8 016:509 JLINK_ReadReg(R15 (PC))  returns 0x0003D0C4 (0000ms, 0888ms total)
T0DD8 016:509 JLINK_ReadReg(XPSR)  returns 0x01000000 (0000ms, 0888ms total)
T0DD8 016:509 JLINK_Step() -- Read from C cache (2 bytes @ 0x0003D0C4) -- Simulated  returns 0x00 (0000ms, 0888ms total)
T0DD8 016:509 JLINK_ReadReg(R15 (PC))  returns 0x0003D0C6 (0000ms, 0888ms total)
T0DD8 016:509 JLINK_ReadReg(XPSR)  returns 0x01000000 (0000ms, 0888ms total)
T0DD8 016:509 JLINK_ReadReg(R0)  returns 0x00000003 (0000ms, 0888ms total)
T0DD8 016:509 JLINK_ReadReg(R1)  returns 0x20002040 (0000ms, 0888ms total)
T0DD8 016:509 JLINK_ReadReg(R2)  returns 0x20002108 (0000ms, 0888ms total)
T0DD8 016:509 JLINK_ReadReg(R3)  returns 0x20002180 (0000ms, 0888ms total)
T0DD8 016:509 JLINK_ReadReg(R4)  returns 0x00000000 (0000ms, 0888ms total)
T0DD8 016:509 JLINK_ReadReg(R5)  returns 0x00000005 (0000ms, 0888ms total)
T0DD8 016:509 JLINK_ReadReg(R6)  returns 0x20002108 (0000ms, 0888ms total)
T0DD8 016:509 JLINK_ReadReg(R7)  returns 0x20002040 (0000ms, 0888ms total)
T0DD8 016:509 JLINK_ReadReg(R8)  returns 0xFFFFFFFF (0000ms, 0888ms total)
T0DD8 016:509 JLINK_ReadReg(R9)  returns 0xFFFFFFFF (0000ms, 0888ms total)
T0DD8 016:509 JLINK_ReadReg(R10)  returns 0x0003F6FC (0000ms, 0888ms total)
T0DD8 016:509 JLINK_ReadReg(R11)  returns 0x0003F6FC (0000ms, 0888ms total)
T0DD8 016:509 JLINK_ReadReg(R12)  returns 0xFFFFFFFF (0000ms, 0888ms total)
T0DD8 016:509 JLINK_ReadReg(R13 (SP))  returns 0x20003810 (0000ms, 0888ms total)
T0DD8 016:509 JLINK_ReadReg(R14)  returns 0x0003CE63 (0000ms, 0888ms total)
T0DD8 016:509 JLINK_ReadReg(R15 (PC))  returns 0x0003D0C6 (0000ms, 0888ms total)
T0DD8 016:509 JLINK_ReadReg(XPSR)  returns 0x01000000 (0000ms, 0888ms total)
T0DD8 016:509 JLINK_ReadReg(MSP)  returns 0x20003810 (0000ms, 0888ms total)
T0DD8 016:509 JLINK_ReadReg(PSP)  returns 0xFFFFFFFC (0000ms, 0888ms total)
T0DD8 016:509 JLINK_ReadReg(CFBP)  returns 0x00000000 (0000ms, 0888ms total)
T0F58 016:509 JLINK_ReadMem (0x20003834, 0x0004 Bytes, ...) -- Read from C cache (4 bytes @ 0x20003834) - Data: AF C2 03 00  returns 0x00 (0000ms, 0888ms total)
T0F58 016:509 JLINK_ReadMem (0x20003824, 0x0004 Bytes, ...) -- Read from C cache (4 bytes @ 0x20003824) - Data: FC F6 03 00  returns 0x00 (0000ms, 0888ms total)
T0F58 016:509 JLINK_ReadMem (0x20003828, 0x0004 Bytes, ...) -- Read from C cache (4 bytes @ 0x20003828) - Data: E0 27 00 20  returns 0x00 (0000ms, 0888ms total)
T0F58 016:509 JLINK_ReadMem (0x2000382C, 0x0004 Bytes, ...) -- Read from C cache (4 bytes @ 0x2000382C) - Data: 00 00 00 00  returns 0x00 (0000ms, 0888ms total)
T0F58 016:509 JLINK_ReadMem (0x20003830, 0x0004 Bytes, ...) -- Read from C cache (4 bytes @ 0x20003830) - Data: 00 00 00 00  returns 0x00 (0000ms, 0888ms total)
T0F58 016:509 JLINK_ReadMem (0x2000383C, 0x0004 Bytes, ...) -- Read from C cache (4 bytes @ 0x2000383C) - Data: 77 C1 03 00  returns 0x00 (0000ms, 0888ms total)
T0F58 016:509 JLINK_ReadMem (0x20003814, 0x0004 Bytes, ...) -- Read from C cache (4 bytes @ 0x20003814) - Data: 00 00 00 00  returns 0x00 (0000ms, 0888ms total)
T0F58 016:509 JLINK_ReadMem (0x00000000, 0x0001 Bytes, ...) -- Read from C cache (1 bytes @ 0x00000000) - Data: D0  returns 0x00 (0001ms, 0889ms total)
T0F58 016:510 JLINK_ReadMem (0x00000000, 0x0004 Bytes, ...) -- Read from C cache (4 bytes @ 0x00000000) - Data: D0 1B 00 20  returns 0x00 (0000ms, 0889ms total)
T0F58 016:510 JLINK_ReadMem (0x0003D0C0, 0x003C Bytes, ...) -- Read from C cache (60 bytes @ 0x0003D0C0) - Data: 03 20 48 70 0F 46 18 46 CB 60 19 46 18 30 00 22 ...  returns 0x00 (0000ms, 0889ms total)
T0DD8 017:082 JLINK_Step() -- Read from C cache (2 bytes @ 0x0003D0C6) -- Simulated  returns 0x00 (0002ms, 0891ms total)
T0DD8 017:084 JLINK_ReadReg(R15 (PC))  returns 0x0003D0C8 (0000ms, 0891ms total)
T0DD8 017:084 JLINK_ReadReg(XPSR)  returns 0x01000000 (0000ms, 0891ms total)
T0DD8 017:084 JLINK_Step() -- Read from C cache (2 bytes @ 0x0003D0C8) -- CPU_WriteMem(4 bytes @ 0x2000204C) -- Simulated  returns 0x00 (0002ms, 0893ms total)
T0DD8 017:086 JLINK_ReadReg(R15 (PC))  returns 0x0003D0CA (0000ms, 0893ms total)
T0DD8 017:086 JLINK_ReadReg(XPSR)  returns 0x01000000 (0000ms, 0893ms total)
T0DD8 017:086 JLINK_Step() -- Read from C cache (2 bytes @ 0x0003D0CA) -- Simulated  returns 0x00 (0000ms, 0893ms total)
T0DD8 017:086 JLINK_ReadReg(R15 (PC))  returns 0x0003D0CC (0000ms, 0893ms total)
T0DD8 017:086 JLINK_ReadReg(XPSR)  returns 0x01000000 (0000ms, 0893ms total)
T0DD8 017:086 JLINK_Step() -- Read from C cache (2 bytes @ 0x0003D0CC) -- Simulated  returns 0x00 (0000ms, 0893ms total)
T0DD8 017:086 JLINK_ReadReg(R15 (PC))  returns 0x0003D0CE (0000ms, 0893ms total)
T0DD8 017:086 JLINK_ReadReg(XPSR)  returns 0x01000000 (0000ms, 0893ms total)
T0DD8 017:086 JLINK_Step() -- Read from C cache (2 bytes @ 0x0003D0CE) -- Simulated  returns 0x00 (0000ms, 0893ms total)
T0DD8 017:086 JLINK_ReadReg(R15 (PC))  returns 0x0003D0D0 (0000ms, 0893ms total)
T0DD8 017:086 JLINK_ReadReg(XPSR)  returns 0x41000000 (0000ms, 0893ms total)
T0DD8 017:086 JLINK_Step() -- Read from C cache (2 bytes @ 0x0003D0D0) -- Simulated  returns 0x00 (0000ms, 0893ms total)
T0DD8 017:086 JLINK_ReadReg(R15 (PC))  returns 0x0003D0D2 (0000ms, 0893ms total)
T0DD8 017:086 JLINK_ReadReg(XPSR)  returns 0x01000000 (0000ms, 0893ms total)
T0DD8 017:087 JLINK_Step() -- Read from C cache (2 bytes @ 0x0003D0D2) -- Simulated  returns 0x00 (0000ms, 0894ms total)
T0DD8 017:087 JLINK_ReadReg(R15 (PC))  returns 0x0003D0D4 (0000ms, 0894ms total)
T0DD8 017:087 JLINK_ReadReg(XPSR)  returns 0x01000000 (0000ms, 0894ms total)
T0DD8 017:087 JLINK_Step() -- Read from C cache (2 bytes @ 0x0003D0D4) -- Simulated  returns 0x00 (0000ms, 0894ms total)
T0DD8 017:087 JLINK_ReadReg(R15 (PC))  returns 0x0003D0D6 (0000ms, 0894ms total)
T0DD8 017:087 JLINK_ReadReg(XPSR)  returns 0x01000000 (0000ms, 0894ms total)
T0DD8 017:087 JLINK_Step() -- Read from C cache (2 bytes @ 0x0003D0D6) -- Simulated  returns 0x00 (0000ms, 0894ms total)
T0DD8 017:087 JLINK_ReadReg(R15 (PC))  returns 0x0003D0D8 (0000ms, 0894ms total)
T0DD8 017:087 JLINK_ReadReg(XPSR)  returns 0x41000000 (0000ms, 0894ms total)
T0DD8 017:087 JLINK_ReadReg(R0)  returns 0x20002198 (0000ms, 0894ms total)
T0DD8 017:087 JLINK_ReadReg(R1)  returns 0x20002180 (0000ms, 0894ms total)
T0DD8 017:087 JLINK_ReadReg(R2)  returns 0x00000000 (0000ms, 0894ms total)
T0DD8 017:087 JLINK_ReadReg(R3)  returns 0x00000000 (0000ms, 0894ms total)
T0DD8 017:087 JLINK_ReadReg(R4)  returns 0x00000000 (0000ms, 0894ms total)
T0DD8 017:088 JLINK_ReadReg(R5)  returns 0x00000005 (0000ms, 0894ms total)
T0DD8 017:088 JLINK_ReadReg(R6)  returns 0x00000078 (0000ms, 0894ms total)
T0DD8 017:088 JLINK_ReadReg(R7)  returns 0x20002040 (0000ms, 0894ms total)
T0DD8 017:088 JLINK_ReadReg(R8)  returns 0xFFFFFFFF (0000ms, 0894ms total)
T0DD8 017:088 JLINK_ReadReg(R9)  returns 0xFFFFFFFF (0000ms, 0894ms total)
T0DD8 017:088 JLINK_ReadReg(R10)  returns 0x0003F6FC (0000ms, 0894ms total)
T0DD8 017:088 JLINK_ReadReg(R11)  returns 0x0003F6FC (0000ms, 0894ms total)
T0DD8 017:088 JLINK_ReadReg(R12)  returns 0xFFFFFFFF (0000ms, 0894ms total)
T0DD8 017:088 JLINK_ReadReg(R13 (SP))  returns 0x20003810 (0000ms, 0894ms total)
T0DD8 017:088 JLINK_ReadReg(R14)  returns 0x0003CE63 (0000ms, 0894ms total)
T0DD8 017:088 JLINK_ReadReg(R15 (PC))  returns 0x0003D0D8 (0000ms, 0894ms total)
T0DD8 017:088 JLINK_ReadReg(XPSR)  returns 0x41000000 (0000ms, 0894ms total)
T0DD8 017:088 JLINK_ReadReg(MSP)  returns 0x20003810 (0000ms, 0894ms total)
T0DD8 017:088 JLINK_ReadReg(PSP)  returns 0xFFFFFFFC (0000ms, 0894ms total)
T0DD8 017:088 JLINK_ReadReg(CFBP)  returns 0x00000000 (0000ms, 0894ms total)
T0F58 017:089 JLINK_ReadMem (0x20003834, 0x0004 Bytes, ...) -- Read from C cache (4 bytes @ 0x20003834) - Data: AF C2 03 00  returns 0x00 (0000ms, 0894ms total)
T0F58 017:089 JLINK_ReadMem (0x20003824, 0x0004 Bytes, ...) -- Read from C cache (4 bytes @ 0x20003824) - Data: FC F6 03 00  returns 0x00 (0000ms, 0894ms total)
T0F58 017:089 JLINK_ReadMem (0x20003828, 0x0004 Bytes, ...) -- Read from C cache (4 bytes @ 0x20003828) - Data: E0 27 00 20  returns 0x00 (0000ms, 0894ms total)
T0F58 017:089 JLINK_ReadMem (0x2000382C, 0x0004 Bytes, ...) -- Read from C cache (4 bytes @ 0x2000382C) - Data: 00 00 00 00  returns 0x00 (0000ms, 0894ms total)
T0F58 017:089 JLINK_ReadMem (0x20003830, 0x0004 Bytes, ...) -- Read from C cache (4 bytes @ 0x20003830) - Data: 00 00 00 00  returns 0x00 (0001ms, 0895ms total)
T0F58 017:090 JLINK_ReadMem (0x2000383C, 0x0004 Bytes, ...) -- Read from C cache (4 bytes @ 0x2000383C) - Data: 77 C1 03 00  returns 0x00 (0000ms, 0895ms total)
T0F58 017:090 JLINK_ReadMem (0x20003814, 0x0004 Bytes, ...) -- Read from C cache (4 bytes @ 0x20003814) - Data: 00 00 00 00  returns 0x00 (0000ms, 0895ms total)
T0F58 017:090 JLINK_ReadMem (0x00000000, 0x0001 Bytes, ...) -- Read from C cache (1 bytes @ 0x00000000) - Data: D0  returns 0x00 (0000ms, 0895ms total)
T0F58 017:090 JLINK_ReadMem (0x00000000, 0x0004 Bytes, ...) -- Read from C cache (4 bytes @ 0x00000000) - Data: D0 1B 00 20  returns 0x00 (0000ms, 0895ms total)
T0F58 017:092 JLINK_ReadMem (0x0003D0D0, 0x003C Bytes, ...) -- CPU_ReadMem(64 bytes @ 0x0003D100) -- Updating C cache (64 bytes @ 0x0003D100) -- Read from C cache (60 bytes @ 0x0003D0D0) - Data: 18 23 2E 46 5E 43 D3 00 5B 18 1C 70 5C 70 9D 70 ...  returns 0x00 (0001ms, 0896ms total)
T0DD8 017:554 JLINK_Step() -- Read from C cache (2 bytes @ 0x0003D0D8) -- Simulated  returns 0x00 (0001ms, 0897ms total)
T0DD8 017:555 JLINK_ReadReg(R15 (PC))  returns 0x0003D0DA (0000ms, 0897ms total)
T0DD8 017:555 JLINK_ReadReg(XPSR)  returns 0x01000000 (0000ms, 0897ms total)
T0DD8 017:555 JLINK_ReadReg(R0)  returns 0x20002198 (0000ms, 0897ms total)
T0DD8 017:555 JLINK_ReadReg(R1)  returns 0x20002180 (0000ms, 0897ms total)
T0DD8 017:555 JLINK_ReadReg(R2)  returns 0x00000000 (0000ms, 0897ms total)
T0DD8 017:555 JLINK_ReadReg(R3)  returns 0x20002180 (0000ms, 0897ms total)
T0DD8 017:555 JLINK_ReadReg(R4)  returns 0x00000000 (0000ms, 0897ms total)
T0DD8 017:555 JLINK_ReadReg(R5)  returns 0x00000005 (0000ms, 0897ms total)
T0DD8 017:555 JLINK_ReadReg(R6)  returns 0x00000078 (0000ms, 0897ms total)
T0DD8 017:555 JLINK_ReadReg(R7)  returns 0x20002040 (0000ms, 0897ms total)
T0DD8 017:555 JLINK_ReadReg(R8)  returns 0xFFFFFFFF (0000ms, 0897ms total)
T0DD8 017:555 JLINK_ReadReg(R9)  returns 0xFFFFFFFF (0000ms, 0897ms total)
T0DD8 017:555 JLINK_ReadReg(R10)  returns 0x0003F6FC (0000ms, 0897ms total)
T0DD8 017:555 JLINK_ReadReg(R11)  returns 0x0003F6FC (0000ms, 0897ms total)
T0DD8 017:555 JLINK_ReadReg(R12)  returns 0xFFFFFFFF (0000ms, 0897ms total)
T0DD8 017:555 JLINK_ReadReg(R13 (SP))  returns 0x20003810 (0001ms, 0898ms total)
T0DD8 017:556 JLINK_ReadReg(R14)  returns 0x0003CE63 (0000ms, 0898ms total)
T0DD8 017:556 JLINK_ReadReg(R15 (PC))  returns 0x0003D0DA (0000ms, 0898ms total)
T0DD8 017:556 JLINK_ReadReg(XPSR)  returns 0x01000000 (0000ms, 0898ms total)
T0DD8 017:556 JLINK_ReadReg(MSP)  returns 0x20003810 (0000ms, 0898ms total)
T0DD8 017:556 JLINK_ReadReg(PSP)  returns 0xFFFFFFFC (0000ms, 0898ms total)
T0DD8 017:556 JLINK_ReadReg(CFBP)  returns 0x00000000 (0000ms, 0898ms total)
T0F58 017:556 JLINK_ReadMem (0x20003834, 0x0004 Bytes, ...) -- Read from C cache (4 bytes @ 0x20003834) - Data: AF C2 03 00  returns 0x00 (0000ms, 0898ms total)
T0F58 017:556 JLINK_ReadMem (0x20003824, 0x0004 Bytes, ...) -- Read from C cache (4 bytes @ 0x20003824) - Data: FC F6 03 00  returns 0x00 (0000ms, 0898ms total)
T0F58 017:556 JLINK_ReadMem (0x20003828, 0x0004 Bytes, ...) -- Read from C cache (4 bytes @ 0x20003828) - Data: E0 27 00 20  returns 0x00 (0000ms, 0898ms total)
T0F58 017:556 JLINK_ReadMem (0x2000382C, 0x0004 Bytes, ...) -- Read from C cache (4 bytes @ 0x2000382C) - Data: 00 00 00 00  returns 0x00 (0000ms, 0898ms total)
T0F58 017:556 JLINK_ReadMem (0x20003830, 0x0004 Bytes, ...) -- Read from C cache (4 bytes @ 0x20003830) - Data: 00 00 00 00  returns 0x00 (0000ms, 0898ms total)
T0F58 017:556 JLINK_ReadMem (0x2000383C, 0x0004 Bytes, ...) -- Read from C cache (4 bytes @ 0x2000383C) - Data: 77 C1 03 00  returns 0x00 (0000ms, 0898ms total)
T0F58 017:556 JLINK_ReadMem (0x20003814, 0x0004 Bytes, ...) -- Read from C cache (4 bytes @ 0x20003814) - Data: 00 00 00 00  returns 0x00 (0000ms, 0898ms total)
T0F58 017:556 JLINK_ReadMem (0x00000000, 0x0001 Bytes, ...) -- Read from C cache (1 bytes @ 0x00000000) - Data: D0  returns 0x00 (0000ms, 0898ms total)
T0F58 017:556 JLINK_ReadMem (0x00000000, 0x0004 Bytes, ...) -- Read from C cache (4 bytes @ 0x00000000) - Data: D0 1B 00 20  returns 0x00 (0000ms, 0898ms total)
T0F58 017:560 JLINK_ReadMem (0x0003D0DA, 0x0002 Bytes, ...) -- Read from C cache (2 bytes @ 0x0003D0DA) - Data: 1C 70  returns 0x00 (0000ms, 0898ms total)
T0F58 017:560 JLINK_ReadMem (0x0003D0DC, 0x003C Bytes, ...) -- Read from C cache (60 bytes @ 0x0003D0DC) - Data: 5C 70 9D 70 58 60 30 18 52 1C 03 2A F5 DB 00 20 ...  returns 0x00 (0000ms, 0898ms total)
T0DD8 018:041 JLINK_Step() -- Read from C cache (2 bytes @ 0x0003D0DA) -- CPU_WriteMem(1 bytes @ 0x20002180) -- Simulated  returns 0x00 (0003ms, 0901ms total)
T0DD8 018:044 JLINK_ReadReg(R15 (PC))  returns 0x0003D0DC (0000ms, 0901ms total)
T0DD8 018:044 JLINK_ReadReg(XPSR)  returns 0x01000000 (0000ms, 0901ms total)
T0DD8 018:044 JLINK_ReadReg(R0)  returns 0x20002198 (0000ms, 0901ms total)
T0DD8 018:044 JLINK_ReadReg(R1)  returns 0x20002180 (0000ms, 0901ms total)
T0DD8 018:044 JLINK_ReadReg(R2)  returns 0x00000000 (0000ms, 0901ms total)
T0DD8 018:044 JLINK_ReadReg(R3)  returns 0x20002180 (0000ms, 0901ms total)
T0DD8 018:044 JLINK_ReadReg(R4)  returns 0x00000000 (0000ms, 0901ms total)
T0DD8 018:044 JLINK_ReadReg(R5)  returns 0x00000005 (0000ms, 0901ms total)
T0DD8 018:044 JLINK_ReadReg(R6)  returns 0x00000078 (0000ms, 0901ms total)
T0DD8 018:044 JLINK_ReadReg(R7)  returns 0x20002040 (0000ms, 0901ms total)
T0DD8 018:044 JLINK_ReadReg(R8)  returns 0xFFFFFFFF (0000ms, 0901ms total)
T0DD8 018:044 JLINK_ReadReg(R9)  returns 0xFFFFFFFF (0000ms, 0901ms total)
T0DD8 018:044 JLINK_ReadReg(R10)  returns 0x0003F6FC (0000ms, 0901ms total)
T0DD8 018:044 JLINK_ReadReg(R11)  returns 0x0003F6FC (0000ms, 0901ms total)
T0DD8 018:044 JLINK_ReadReg(R12)  returns 0xFFFFFFFF (0000ms, 0901ms total)
T0DD8 018:044 JLINK_ReadReg(R13 (SP))  returns 0x20003810 (0000ms, 0901ms total)
T0DD8 018:045 JLINK_ReadReg(R14)  returns 0x0003CE63 (0000ms, 0902ms total)
T0DD8 018:045 JLINK_ReadReg(R15 (PC))  returns 0x0003D0DC (0000ms, 0902ms total)
T0DD8 018:045 JLINK_ReadReg(XPSR)  returns 0x01000000 (0000ms, 0902ms total)
T0DD8 018:045 JLINK_ReadReg(MSP)  returns 0x20003810 (0000ms, 0902ms total)
T0DD8 018:045 JLINK_ReadReg(PSP)  returns 0xFFFFFFFC (0000ms, 0902ms total)
T0DD8 018:045 JLINK_ReadReg(CFBP)  returns 0x00000000 (0000ms, 0902ms total)
T0F58 018:046 JLINK_ReadMem (0x20003834, 0x0004 Bytes, ...) -- Read from C cache (4 bytes @ 0x20003834) - Data: AF C2 03 00  returns 0x00 (0000ms, 0902ms total)
T0F58 018:046 JLINK_ReadMem (0x20003824, 0x0004 Bytes, ...) -- Read from C cache (4 bytes @ 0x20003824) - Data: FC F6 03 00  returns 0x00 (0000ms, 0902ms total)
T0F58 018:046 JLINK_ReadMem (0x20003828, 0x0004 Bytes, ...) -- Read from C cache (4 bytes @ 0x20003828) - Data: E0 27 00 20  returns 0x00 (0000ms, 0902ms total)
T0F58 018:046 JLINK_ReadMem (0x2000382C, 0x0004 Bytes, ...) -- Read from C cache (4 bytes @ 0x2000382C) - Data: 00 00 00 00  returns 0x00 (0000ms, 0902ms total)
T0F58 018:046 JLINK_ReadMem (0x20003830, 0x0004 Bytes, ...) -- Read from C cache (4 bytes @ 0x20003830) - Data: 00 00 00 00  returns 0x00 (0000ms, 0902ms total)
T0F58 018:046 JLINK_ReadMem (0x2000383C, 0x0004 Bytes, ...) -- Read from C cache (4 bytes @ 0x2000383C) - Data: 77 C1 03 00  returns 0x00 (0000ms, 0902ms total)
T0F58 018:046 JLINK_ReadMem (0x20003814, 0x0004 Bytes, ...) -- Read from C cache (4 bytes @ 0x20003814) - Data: 00 00 00 00  returns 0x00 (0000ms, 0902ms total)
T0F58 018:046 JLINK_ReadMem (0x00000000, 0x0001 Bytes, ...) -- Read from C cache (1 bytes @ 0x00000000) - Data: D0  returns 0x00 (0000ms, 0902ms total)
T0F58 018:046 JLINK_ReadMem (0x00000000, 0x0004 Bytes, ...) -- Read from C cache (4 bytes @ 0x00000000) - Data: D0 1B 00 20  returns 0x00 (0001ms, 0903ms total)
T0F58 018:054 JLINK_ReadMem (0x0003D0DA, 0x0002 Bytes, ...) -- Read from C cache (2 bytes @ 0x0003D0DA) - Data: 1C 70  returns 0x00 (0000ms, 0903ms total)
T0F58 018:054 JLINK_ReadMem (0x0003D0DC, 0x003C Bytes, ...) -- Read from C cache (60 bytes @ 0x0003D0DC) - Data: 5C 70 9D 70 58 60 30 18 52 1C 03 2A F5 DB 00 20 ...  returns 0x00 (0000ms, 0903ms total)
T0DD8 018:257 JLINK_Step() -- Read from C cache (2 bytes @ 0x0003D0DC) -- CPU_WriteMem(1 bytes @ 0x20002181) -- Simulated  returns 0x00 (0002ms, 0905ms total)
T0DD8 018:259 JLINK_ReadReg(R15 (PC))  returns 0x0003D0DE (0000ms, 0905ms total)
T0DD8 018:259 JLINK_ReadReg(XPSR)  returns 0x01000000 (0000ms, 0905ms total)
T0DD8 018:259 JLINK_ReadReg(R0)  returns 0x20002198 (0000ms, 0905ms total)
T0DD8 018:259 JLINK_ReadReg(R1)  returns 0x20002180 (0000ms, 0905ms total)
T0DD8 018:259 JLINK_ReadReg(R2)  returns 0x00000000 (0000ms, 0905ms total)
T0DD8 018:259 JLINK_ReadReg(R3)  returns 0x20002180 (0000ms, 0905ms total)
T0DD8 018:259 JLINK_ReadReg(R4)  returns 0x00000000 (0000ms, 0905ms total)
T0DD8 018:259 JLINK_ReadReg(R5)  returns 0x00000005 (0000ms, 0905ms total)
T0DD8 018:259 JLINK_ReadReg(R6)  returns 0x00000078 (0000ms, 0905ms total)
T0DD8 018:259 JLINK_ReadReg(R7)  returns 0x20002040 (0000ms, 0905ms total)
T0DD8 018:259 JLINK_ReadReg(R8)  returns 0xFFFFFFFF (0000ms, 0905ms total)
T0DD8 018:259 JLINK_ReadReg(R9)  returns 0xFFFFFFFF (0000ms, 0905ms total)
T0DD8 018:259 JLINK_ReadReg(R10)  returns 0x0003F6FC (0000ms, 0905ms total)
T0DD8 018:259 JLINK_ReadReg(R11)  returns 0x0003F6FC (0000ms, 0905ms total)
T0DD8 018:259 JLINK_ReadReg(R12)  returns 0xFFFFFFFF (0001ms, 0906ms total)
T0DD8 018:260 JLINK_ReadReg(R13 (SP))  returns 0x20003810 (0000ms, 0906ms total)
T0DD8 018:260 JLINK_ReadReg(R14)  returns 0x0003CE63 (0000ms, 0906ms total)
T0DD8 018:260 JLINK_ReadReg(R15 (PC))  returns 0x0003D0DE (0000ms, 0906ms total)
T0DD8 018:260 JLINK_ReadReg(XPSR)  returns 0x01000000 (0000ms, 0906ms total)
T0DD8 018:260 JLINK_ReadReg(MSP)  returns 0x20003810 (0000ms, 0906ms total)
T0DD8 018:260 JLINK_ReadReg(PSP)  returns 0xFFFFFFFC (0000ms, 0906ms total)
T0DD8 018:260 JLINK_ReadReg(CFBP)  returns 0x00000000 (0000ms, 0906ms total)
T0F58 018:261 JLINK_ReadMem (0x20003834, 0x0004 Bytes, ...) -- Read from C cache (4 bytes @ 0x20003834) - Data: AF C2 03 00  returns 0x00 (0000ms, 0906ms total)
T0F58 018:261 JLINK_ReadMem (0x20003824, 0x0004 Bytes, ...) -- Read from C cache (4 bytes @ 0x20003824) - Data: FC F6 03 00  returns 0x00 (0000ms, 0906ms total)
T0F58 018:261 JLINK_ReadMem (0x20003828, 0x0004 Bytes, ...) -- Read from C cache (4 bytes @ 0x20003828) - Data: E0 27 00 20  returns 0x00 (0000ms, 0906ms total)
T0F58 018:261 JLINK_ReadMem (0x2000382C, 0x0004 Bytes, ...) -- Read from C cache (4 bytes @ 0x2000382C) - Data: 00 00 00 00  returns 0x00 (0000ms, 0906ms total)
T0F58 018:261 JLINK_ReadMem (0x20003830, 0x0004 Bytes, ...) -- Read from C cache (4 bytes @ 0x20003830) - Data: 00 00 00 00  returns 0x00 (0001ms, 0907ms total)
T0F58 018:262 JLINK_ReadMem (0x2000383C, 0x0004 Bytes, ...) -- Read from C cache (4 bytes @ 0x2000383C) - Data: 77 C1 03 00  returns 0x00 (0000ms, 0907ms total)
T0F58 018:262 JLINK_ReadMem (0x20003814, 0x0004 Bytes, ...) -- Read from C cache (4 bytes @ 0x20003814) - Data: 00 00 00 00  returns 0x00 (0000ms, 0907ms total)
T0F58 018:262 JLINK_ReadMem (0x00000000, 0x0001 Bytes, ...) -- Read from C cache (1 bytes @ 0x00000000) - Data: D0  returns 0x00 (0000ms, 0907ms total)
T0F58 018:262 JLINK_ReadMem (0x00000000, 0x0004 Bytes, ...) -- Read from C cache (4 bytes @ 0x00000000) - Data: D0 1B 00 20  returns 0x00 (0000ms, 0907ms total)
T0F58 018:265 JLINK_ReadMem (0x0003D0DC, 0x003C Bytes, ...) -- Read from C cache (60 bytes @ 0x0003D0DC) - Data: 5C 70 9D 70 58 60 30 18 52 1C 03 2A F5 DB 00 20 ...  returns 0x00 (0000ms, 0907ms total)
T0DD8 018:455 JLINK_Step() -- Read from C cache (2 bytes @ 0x0003D0DE) -- CPU_WriteMem(1 bytes @ 0x20002182) -- Simulated  returns 0x00 (0001ms, 0908ms total)
T0DD8 018:456 JLINK_ReadReg(R15 (PC))  returns 0x0003D0E0 (0000ms, 0908ms total)
T0DD8 018:456 JLINK_ReadReg(XPSR)  returns 0x01000000 (0000ms, 0908ms total)
T0DD8 018:456 JLINK_ReadReg(R0)  returns 0x20002198 (0000ms, 0908ms total)
T0DD8 018:456 JLINK_ReadReg(R1)  returns 0x20002180 (0000ms, 0908ms total)
T0DD8 018:456 JLINK_ReadReg(R2)  returns 0x00000000 (0000ms, 0908ms total)
T0DD8 018:456 JLINK_ReadReg(R3)  returns 0x20002180 (0000ms, 0908ms total)
T0DD8 018:456 JLINK_ReadReg(R4)  returns 0x00000000 (0000ms, 0908ms total)
T0DD8 018:456 JLINK_ReadReg(R5)  returns 0x00000005 (0001ms, 0909ms total)
T0DD8 018:457 JLINK_ReadReg(R6)  returns 0x00000078 (0000ms, 0909ms total)
T0DD8 018:457 JLINK_ReadReg(R7)  returns 0x20002040 (0000ms, 0909ms total)
T0DD8 018:457 JLINK_ReadReg(R8)  returns 0xFFFFFFFF (0000ms, 0909ms total)
T0DD8 018:457 JLINK_ReadReg(R9)  returns 0xFFFFFFFF (0000ms, 0909ms total)
T0DD8 018:457 JLINK_ReadReg(R10)  returns 0x0003F6FC (0000ms, 0909ms total)
T0DD8 018:457 JLINK_ReadReg(R11)  returns 0x0003F6FC (0000ms, 0909ms total)
T0DD8 018:457 JLINK_ReadReg(R12)  returns 0xFFFFFFFF (0000ms, 0909ms total)
T0DD8 018:457 JLINK_ReadReg(R13 (SP))  returns 0x20003810 (0000ms, 0909ms total)
T0DD8 018:457 JLINK_ReadReg(R14)  returns 0x0003CE63 (0000ms, 0909ms total)
T0DD8 018:457 JLINK_ReadReg(R15 (PC))  returns 0x0003D0E0 (0000ms, 0909ms total)
T0DD8 018:457 JLINK_ReadReg(XPSR)  returns 0x01000000 (0000ms, 0909ms total)
T0DD8 018:457 JLINK_ReadReg(MSP)  returns 0x20003810 (0000ms, 0909ms total)
T0DD8 018:457 JLINK_ReadReg(PSP)  returns 0xFFFFFFFC (0000ms, 0909ms total)
T0DD8 018:457 JLINK_ReadReg(CFBP)  returns 0x00000000 (0000ms, 0909ms total)
T0F58 018:457 JLINK_ReadMem (0x20003834, 0x0004 Bytes, ...) -- Read from C cache (4 bytes @ 0x20003834) - Data: AF C2 03 00  returns 0x00 (0000ms, 0909ms total)
T0F58 018:457 JLINK_ReadMem (0x20003824, 0x0004 Bytes, ...) -- Read from C cache (4 bytes @ 0x20003824) - Data: FC F6 03 00  returns 0x00 (0000ms, 0909ms total)
T0F58 018:457 JLINK_ReadMem (0x20003828, 0x0004 Bytes, ...) -- Read from C cache (4 bytes @ 0x20003828) - Data: E0 27 00 20  returns 0x00 (0000ms, 0909ms total)
T0F58 018:457 JLINK_ReadMem (0x2000382C, 0x0004 Bytes, ...) -- Read from C cache (4 bytes @ 0x2000382C) - Data: 00 00 00 00  returns 0x00 (0000ms, 0909ms total)
T0F58 018:457 JLINK_ReadMem (0x20003830, 0x0004 Bytes, ...) -- Read from C cache (4 bytes @ 0x20003830) - Data: 00 00 00 00  returns 0x00 (0000ms, 0909ms total)
T0F58 018:457 JLINK_ReadMem (0x2000383C, 0x0004 Bytes, ...) -- Read from C cache (4 bytes @ 0x2000383C) - Data: 77 C1 03 00  returns 0x00 (0000ms, 0909ms total)
T0F58 018:457 JLINK_ReadMem (0x20003814, 0x0004 Bytes, ...) -- Read from C cache (4 bytes @ 0x20003814) - Data: 00 00 00 00  returns 0x00 (0000ms, 0909ms total)
T0F58 018:457 JLINK_ReadMem (0x00000000, 0x0001 Bytes, ...) -- Read from C cache (1 bytes @ 0x00000000) - Data: D0  returns 0x00 (0000ms, 0909ms total)
T0F58 018:457 JLINK_ReadMem (0x00000000, 0x0004 Bytes, ...) -- Read from C cache (4 bytes @ 0x00000000) - Data: D0 1B 00 20  returns 0x00 (0000ms, 0909ms total)
T0F58 018:458 JLINK_ReadMem (0x0003D0DE, 0x0002 Bytes, ...) -- Read from C cache (2 bytes @ 0x0003D0DE) - Data: 9D 70  returns 0x00 (0000ms, 0909ms total)
T0F58 018:458 JLINK_ReadMem (0x0003D0E0, 0x003C Bytes, ...) -- Read from C cache (60 bytes @ 0x0003D0E0) - Data: 58 60 30 18 52 1C 03 2A F5 DB 00 20 C0 43 38 61 ...  returns 0x00 (0000ms, 0909ms total)
T0F58 018:460 JLINK_ReadMem (0x0003D0D0, 0x003C Bytes, ...) -- Read from C cache (60 bytes @ 0x0003D0D0) - Data: 18 23 2E 46 5E 43 D3 00 5B 18 1C 70 5C 70 9D 70 ...  returns 0x00 (0000ms, 0909ms total)
T0DD8 018:722 JLINK_Step() -- Read from C cache (2 bytes @ 0x0003D0E0) -- CPU_WriteMem(4 bytes @ 0x20002184) -- Simulated  returns 0x00 (0003ms, 0912ms total)
T0DD8 018:725 JLINK_ReadReg(R15 (PC))  returns 0x0003D0E2 (0000ms, 0912ms total)
T0DD8 018:725 JLINK_ReadReg(XPSR)  returns 0x01000000 (0000ms, 0912ms total)
T0DD8 018:725 JLINK_Step() -- Read from C cache (2 bytes @ 0x0003D0E2) -- Simulated  returns 0x00 (0000ms, 0912ms total)
T0DD8 018:725 JLINK_ReadReg(R15 (PC))  returns 0x0003D0E4 (0000ms, 0912ms total)
T0DD8 018:725 JLINK_ReadReg(XPSR)  returns 0x01000000 (0000ms, 0912ms total)
T0DD8 018:725 JLINK_Step() -- Read from C cache (2 bytes @ 0x0003D0E4) -- Simulated  returns 0x00 (0000ms, 0912ms total)
T0DD8 018:726 JLINK_ReadReg(R15 (PC))  returns 0x0003D0E6 (0000ms, 0912ms total)
T0DD8 018:726 JLINK_ReadReg(XPSR)  returns 0x01000000 (0000ms, 0912ms total)
T0DD8 018:726 JLINK_ReadReg(R0)  returns 0x20002210 (0000ms, 0912ms total)
T0DD8 018:726 JLINK_ReadReg(R1)  returns 0x20002180 (0000ms, 0912ms total)
T0DD8 018:726 JLINK_ReadReg(R2)  returns 0x00000001 (0000ms, 0912ms total)
T0DD8 018:726 JLINK_ReadReg(R3)  returns 0x20002180 (0000ms, 0912ms total)
T0DD8 018:726 JLINK_ReadReg(R4)  returns 0x00000000 (0000ms, 0912ms total)
T0DD8 018:726 JLINK_ReadReg(R5)  returns 0x00000005 (0000ms, 0912ms total)
T0DD8 018:726 JLINK_ReadReg(R6)  returns 0x00000078 (0000ms, 0912ms total)
T0DD8 018:726 JLINK_ReadReg(R7)  returns 0x20002040 (0000ms, 0912ms total)
T0DD8 018:726 JLINK_ReadReg(R8)  returns 0xFFFFFFFF (0000ms, 0912ms total)
T0DD8 018:726 JLINK_ReadReg(R9)  returns 0xFFFFFFFF (0000ms, 0912ms total)
T0DD8 018:726 JLINK_ReadReg(R10)  returns 0x0003F6FC (0000ms, 0912ms total)
T0DD8 018:726 JLINK_ReadReg(R11)  returns 0x0003F6FC (0000ms, 0912ms total)
T0DD8 018:726 JLINK_ReadReg(R12)  returns 0xFFFFFFFF (0000ms, 0912ms total)
T0DD8 018:726 JLINK_ReadReg(R13 (SP))  returns 0x20003810 (0000ms, 0912ms total)
T0DD8 018:726 JLINK_ReadReg(R14)  returns 0x0003CE63 (0001ms, 0913ms total)
T0DD8 018:727 JLINK_ReadReg(R15 (PC))  returns 0x0003D0E6 (0000ms, 0913ms total)
T0DD8 018:727 JLINK_ReadReg(XPSR)  returns 0x01000000 (0000ms, 0913ms total)
T0DD8 018:727 JLINK_ReadReg(MSP)  returns 0x20003810 (0000ms, 0913ms total)
T0DD8 018:727 JLINK_ReadReg(PSP)  returns 0xFFFFFFFC (0000ms, 0913ms total)
T0DD8 018:727 JLINK_ReadReg(CFBP)  returns 0x00000000 (0000ms, 0913ms total)
T0F58 018:727 JLINK_ReadMem (0x20003834, 0x0004 Bytes, ...) -- Read from C cache (4 bytes @ 0x20003834) - Data: AF C2 03 00  returns 0x00 (0000ms, 0913ms total)
T0F58 018:727 JLINK_ReadMem (0x20003824, 0x0004 Bytes, ...) -- Read from C cache (4 bytes @ 0x20003824) - Data: FC F6 03 00  returns 0x00 (0000ms, 0913ms total)
T0F58 018:727 JLINK_ReadMem (0x20003828, 0x0004 Bytes, ...) -- Read from C cache (4 bytes @ 0x20003828) - Data: E0 27 00 20  returns 0x00 (0000ms, 0913ms total)
T0F58 018:727 JLINK_ReadMem (0x2000382C, 0x0004 Bytes, ...) -- Read from C cache (4 bytes @ 0x2000382C) - Data: 00 00 00 00  returns 0x00 (0000ms, 0913ms total)
T0F58 018:727 JLINK_ReadMem (0x20003830, 0x0004 Bytes, ...) -- Read from C cache (4 bytes @ 0x20003830) - Data: 00 00 00 00  returns 0x00 (0000ms, 0913ms total)
